#Digilent WaveForms Network Analyzer - Bode
#Device Name: Discovery3
#Serial Number: SN:210415BCB4A5
#Date Time: 2026-05-26 15:37:38.167
#Start: 40120.6 Hz
#Stop: 107226 Hz
#Steps: 501
#Wavegen: Wavegen C1
#Amplification: 1 X
#Settle: 10 ms
#MinPeriods: 16 
#Channel: Channel 1
#Range: 5.08906 V
#Offset: -0.000338471 V
#Relative: yes

Frequency (Hz),Channel 1 Magnitude (dB),Channel 1 Phase (deg)
40120.63374709649,-43.75567433917755,-31.21377252564516
40199.59264606618,-45.08338655716864,-26.15123769350653
40278.70693908486,-45.18878665499322,-28.22906153895249
40357.97693197382,-44.85315056229733,-24.1175125964023
40437.40293115618,-45.02905283452576,-23.68225737952045
40516.98524365813,-45.14771221735232,-26.89795825617335
40596.72417711009,-44.6904029019089,-24.1599756526771
40676.62003974791,-45.30233176312693,-18.76208051283801
40756.67314041408,-43.9632086012975,-27.57119875422586
40836.88378855887,-45.44409866566745,-26.82370642302124
40917.25229424159,-44.20222143763199,-21.93026945540851
40997.77896813172,-44.76790358971342,-21.76085039534939
41078.4641215102,-44.8651198599654,-22.47751289225243
41159.30806627054,-46.00750552407645,-25.8274307435491
41240.31111492009,-44.67459436611735,-23.06606191076811
41321.47358058122,-44.99536834783163,-28.73844159151705
41402.79577699253,-44.08966006026522,-25.15616688971824
41484.27801851008,-44.36273417659073,-28.01970124806178
41565.92062010858,-45.69648074817377,-26.0360702487276
41647.72389738265,-45.50006306338794,-22.44468852265604
41729.68816654799,-45.13384812087359,-25.73436790382831
41811.81374444261,-43.85094242949972,-28.35371462840982
41894.1009485281,-44.52743124142053,-26.94938143076222
41976.55009689082,-45.99095873967179,-19.22463161887376
42059.16150824312,-44.01896020019812,-18.82767147508
42141.9355019246,-45.6149889728193,-32.79795575117409
42224.87239790332,-45.18940827565399,-26.77549099603502
42307.97251677707,-44.39690527228257,-26.77907040487059
42391.23617977458,-44.96782458360799,-25.88791192542458
42474.66370875674,-45.04701633002674,-25.64660142956478
42558.25542621793,-45.62916231735472,-29.00672713710027
42642.01165528717,-44.53177220231374,-22.23825501895647
42725.93271972941,-45.68651040853211,-25.87213127265435
42810.01894394682,-46.28733205007268,-24.3769716498704
42894.27065297995,-44.40423957853943,-13.1515601897998
42978.68817250909,-44.86667721898265,-24.27236942299258
43063.27182885545,-44.91956580540646,-25.70388674772366
43148.02194898247,-45.85630942631441,-25.67183178147194
43232.93886049707,-45.7155990442116,-23.81434935949753
43318.02289165088,-45.50918949486988,-25.41979364378547
43403.27437134156,-46.50585395751012,-27.40176558863588
43488.69362911409,-44.51997004836279,-29.59055494116322
43574.28099516195,-45.30934739654253,-18.92033610224806
43660.03680032848,-44.64910605699301,-27.87010802787533
43745.96137610813,-45.25101844992367,-16.26694655788036
43832.05505464773,-45.25926256692835,-30.39903977259598
43918.31816874782,-45.88506677314542,-21.73158226730693
44004.75105186387,-45.45364496102343,-19.91429423399387
44091.35403810762,-45.26749071556124,-24.89819569136767
44178.12746224835,-45.03678081822905,-19.89321429937692
44265.07165971417,-44.88285030205429,-26.66904706205166
44352.18696659334,-45.57352685781655,-24.57304034097862
44439.47371963555,-44.92386998017438,-18.70982577205577
44526.93225625322,-46.13792828297677,-19.34405671273275
44614.56291452282,-45.52420909810783,-21.91084882304236
44702.36603318615,-44.69097591355108,-25.94961340605738
44790.34195165169,-44.74986484041332,-23.99671600553091
44878.49100999587,-46.68134203505836,-21.4732909705223
44966.8135489644,-45.8184939456184,-19.50671685808185
45055.30990997361,-45.5167785546293,-24.7888982686082
45143.98043511173,-45.42962407789284,-24.94566429745302
45232.82546714025,-45.32700991668612,-26.83209757835893
45321.84534949522,-45.18449453336076,-24.91342672804603
45411.04042628859,-44.18600158429762,-22.55348756586625
45500.41104230949,-45.11757606195448,-20.53570599412006
45589.9575430257,-44.5880891234098,-22.3315993990141
45679.68027458481,-46.25145882348704,-15.33914599009978
45769.57958381567,-45.303849115283,-25.47197335619149
45859.65581822972,-46.00984496826293,-22.41341037076359
45949.90932602227,-44.63413620909812,-19.31824107015566
46040.34045607396,-44.71707997134106,-24.15437307474852
46130.94955795196,-45.55074735084573,-18.32616134268473
46221.73698191148,-45.00914894819934,-16.25238459378943
46312.70307889698,-45.40248317191562,-23.24823179316579
46403.84820054362,-45.7468817235707,-27.59383132461917
46495.17269917861,-44.64242624209483,-24.47286362438411
46586.6769278225,-46.72876404269297,-23.03375767850792
46678.36124019066,-45.24184294634755,-24.69589011805253
46770.22599069455,-45.06826683429787,-21.03477826748397
46862.27153444311,-45.8852347533136,-29.40621168075101
46954.49822724419,-44.98068097397593,-22.97574167857206
47046.90642560585,-44.87581248362758,-22.60195661944287
47139.49648673779,-44.370892522684,-19.63162688458573
47232.26876855269,-44.57935950384183,-16.54423168054988
47325.22362966764,-44.95569705449451,-26.01110117334007
47418.36142940549,-45.49571877222307,-28.44807507434018
47511.68252779624,-44.82129270703628,-24.00222980766827
47605.18728557848,-44.92213297149588,-21.03782115993638
47698.8760642007,-44.57894472934466,-25.31865616463702
47792.74922582276,-45.65450666923282,-17.29674836116419
47886.80713331726,-45.24296899163585,-21.39535246325899
47981.05015027094,-45.54538717813905,-18.38817863697304
48075.47864098613,-45.47016724168709,-27.00212358637078
48170.09297048205,-44.97374344553933,-19.22358266298633
48264.89350449634,-45.16081420403929,-22.20676860903584
48359.88060948642,-44.28636080135007,-21.72854756058365
48455.05465263092,-45.24094120247081,-18.68503672359753
48550.41600183104,-44.76018746930528,-15.23715672062758
48645.96502571211,-45.62922992719143,-19.37965273651761
48741.70209362485,-45.65872975345204,-22.83907734258489
48837.62757564692,-46.85963025068248,-23.88201855545765
48933.74184258428,-44.27056853922609,-22.93318154522087
49030.04526597267,-46.46943026942135,-18.35349283367373
49126.53821807903,-45.55957954868022,-27.82126509422676
49223.2210719029,-46.63413316510582,-12.30288140859349
49320.09420117793,-45.59100877971652,-11.58374583937059
49417.1579803733,-45.04313216715029,-19.97299928616309
49514.41278469512,-44.96639274189712,-20.06087865037741
49611.85899008795,-45.08700805383378,-22.96044694206138
49709.4969732362,-46.5367795290485,-21.08962361639235
49807.32711156565,-45.6482436137951,-25.85737170609329
49905.34978324483,-46.06921906329286,-31.78767446213345
50003.56536718653,-45.7278978728536,-30.56482023597759
50101.97424304925,-45.97863297576551,-31.34516738168868
50200.57679123868,-44.97832726778677,-17.8339129573372
50299.37339290916,-43.58180186329187,-18.36226726707169
50398.36442996516,-45.10374325796012,-24.46828985614962
50497.55028506276,-43.91288213627349,-19.05046407534037
50596.93134161108,-44.70156679335081,-19.52030216022852
50696.50798377386,-45.69368394173055,-11.36339897955705
50796.28059647085,-44.03290464345751,-17.23651470067338
50896.24956537933,-45.25567025645955,-19.26646216560908
50996.41527693566,-44.04862862288433,-18.65106388680132
51096.77811833666,-44.98764122804693,-16.16865273231326
51197.33847754121,-45.40209464021216,-17.70823153006924
51298.09674327169,-43.69479847856181,-12.22224500357127
51399.05330501548,-45.50026565751861,-21.6391332927063
51500.20855302654,-45.92983985682555,-25.56183807938849
51601.5628783268,-44.74145568308076,-15.0106664433216
51703.11667270779,-44.91054296370528,-18.37676597300028
51804.87032873207,-44.04542719918496,-27.33270832836061
51906.82423973479,-44.80655186488258,-17.9354854546452
52008.97879982518,-44.21850430737454,-19.23289569160397
52111.33440388812,-43.60322974341347,-13.04325131642113
52213.89144758561,-44.87933441076201,-19.75445026839955
52316.65032735834,-44.64568102906113,-11.41867324454179
52419.61144042724,-44.40306481985328,-27.14041027283771
52522.77518479492,-44.85768349982811,-28.32509505266187
52626.14195924732,-44.02769810503082,-20.70399196618914
52729.71216335521,-43.90938263962363,-19.16062304769099
52833.48619747569,-43.90428793640761,-9.597251049393179
52937.46446275384,-43.71088847676005,-8.43805242250005
53041.64736112414,-44.9901270657945,-14.32545161713714
53146.03529531213,-44.53996191855224,-24.3172129074076
53250.62866883594,-43.27325326865525,-14.87777952844661
53355.4278860078,-43.9107395149717,-25.56790079931102
53460.43335193569,-43.37206688879068,-15.03190424411656
53565.6454725248,-42.98775612229582,-14.72077787109819
53671.0646544792,-43.30179277075617,-17.04664063156611
53776.69130530336,-43.91993145744274,-14.87275835712737
53882.52583330372,-43.4002216411022,-18.09548076021515
53988.5686475903,-43.47840080954467,-20.83292546569094
54094.82015807826,-42.90105587484521,-16.46099277611876
54201.28077548945,-42.56208023692973,-21.01954602641517
54307.95091135413,-41.26449216904837,-14.2514706005002
54414.83097801237,-41.4684354595516,-17.4247688618922
54521.92138861577,-40.8478564390787,-14.58185415448364
54629.22255712905,-39.94762162625835,-14.64216062130242
54736.7348983316,-39.24844785181322,-14.4372581265104
54844.45882781915,-37.7534755046274,-16.63166520889239
54952.39476200529,-36.35210258500882,-15.40468080263248
55060.54311812315,-33.20838639466972,-20.18715033879995
55168.90431422701,-28.73516834093643,-31.74144398718826
55277.47876919385,-23.37771576450677,-107.0953416214624
55386.26690272505,-32.40089663465226,-161.9614588322253
55495.26913534797,-38.90914791153146,-168.2268415366778
55604.48588841759,-44.59162513815337,-169.7896117460129
55713.91758411813,-48.23724092757459,-151.7311593159521
55823.56464546467,-53.39163009761756,-151.0535622199218
55933.4274963048,-58.22639288242823,-124.1321247581189
56043.50656132028,-58.10503490397315,-123.6835140377188
56153.80226602864,-56.46453914623166,-80.86801075663192
56264.31503678486,-65.43507444597884,-49.36375721201745
56375.04530078298,-55.71800961558946,-36.80991282570338
56485.9934860578,-55.62589798316981,-66.23041024467234
56597.16002148647,-54.68638516723314,-40.57252496060207
56708.54533679025,-53.76374495807091,-37.92811419461287
56820.14986253605,-49.27829516093628,-44.42472991279244
56931.97403013816,-56.33408027119958,-5.107794440339745
57044.01827185993,-49.95520134834482,-19.34771078518277
57156.28302081541,-51.68313250670612,-26.62359084568581
57268.76871097105,-50.78622400097154,-40.51381250535449
57381.47577714732,-50.07145629325517,-29.45405851975455
57494.40465502046,-51.04396225663336,-28.34590065179655
57607.55578112416,-51.73872872158847,-32.08876717673087
57720.92959285119,-51.23207193941812,-7.086130096152687
57834.52652845513,-51.2016668198416,-24.5236786894975
57948.34702705206,-50.70874299964284,-26.63596891384967
58062.39152862228,-51.29674683426628,-25.01226818172447
58176.66047401198,-50.34417626667769,-18.03310476123571
58291.15430493492,-48.38349733518805,-24.43953680094045
58405.87346397419,-48.44868305032869,-25.09185145769183
58520.81839458393,-51.31670251313375,-26.58506420405453
58635.98954109094,-49.3644730513347,-18.12458910140245
58751.38734869655,-49.64743023259675,-35.5983926963291
58867.01226347822,-50.81967191265599,-24.43771226282249
58982.8647323913,-49.07806867291779,-29.35180101253772
59098.94520327082,-48.63627618566629,-29.6708282815914
59215.2541248331,-48.60902854489593,-3.573013877646403
59331.79194667758,-50.55052043587391,-22.05872636954588
59448.55911928853,-48.59336480188372,-10.63345721515097
59565.5560940368,-47.02294200113915,-19.63190314437087
59682.78332318152,-48.38076103411265,-22.81464098717998
59800.24125987191,-49.0980033714974,-13.6998691081678
59917.93035814899,-47.91326498443715,-15.23092273699837
60035.85107294736,-50.24731787547435,-16.21666925902809
60154.00386009696,-49.27932962534258,-22.88495478494249
60272.38917632481,-51.37069218201784,-32.94057309873235
60391.00747925676,-46.05236665529983,-22.01074558079404
60509.85922741931,-48.19135285762191,-17.68168087381299
60628.94488024138,-48.78428218330128,-28.94316920630841
60748.26489805599,-48.66627161034871,-6.389289209694271
60867.81974210221,-48.22898324319033,-13.98874027218743
60987.60987452676,-48.7672614853407,-27.36118500953329
61107.63575838593,-48.44893431269612,-16.59738242998301
61227.8978576473,-47.47352376754041,-35.47826715645055
61348.39663719158,-46.8031167356523,-36.37552168727358
61469.13256281437,-48.65281814833062,-5.839822243444587
61590.10610122795,-49.27742146011065,-14.60257036686903
61711.31772006312,-49.35254289693623,-16.65313611444797
61832.76788787103,-47.37077678902092,-14.71631097635577
61954.45707412491,-49.2397396300297,-30.14915784045822
62076.38574922197,-48.78942804323313,-17.49489176545809
62198.55438448513,-47.2167011524097,-12.80088565874998
62320.96345216494,-47.41160536151369,-15.40448456374511
62443.61342544133,-48.71215370813125,-26.36141404894629
62566.50477842545,-46.97215170926815,-18.59905971770598
62689.63798616157,-47.80438781985467,-25.05952227797127
62813.01352462883,-46.05074114657512,-10.64216380771612
62936.63187074311,-48.21163003459888,-28.18373210943656
63060.49350235886,-47.64406844239861,-8.424394612240775
63184.59889827106,-46.85426022598597,-10.94518595423531
63308.94853821686,-49.19101170850024,-28.84295793782389
63433.54290287761,-50.71765376794791,-25.67528927375383
63558.38247388064,-50.79761313699357,-24.31627023123951
63683.46773380117,-49.07144113535736,-14.87916052383751
63808.7991661641,-50.19983604159134,-14.46987670854439
63934.37725544597,-46.60616413653977,-15.552134032903
64060.20248707675,-48.70421730355622,-17.73109778742659
64186.27534744179,-49.67291927549502,-7.332867765292328
64312.59632388364,-51.80267872744594,-23.13780147233557
64439.16590470396,-47.69744345231484,-23.59237955333391
64565.98457916543,-46.62288053927621,-20.71932457112757
64693.05283749356,-49.06716432064884,-14.26734019775259
64820.37117087869,-50.92473511885625,-10.25221673713649
64947.94007147787,-48.81516502127505,-18.60193798897923
65075.76003241665,-51.74090818194227,-17.99418955693389
65203.83154779112,-50.5101543061571,-13.93416525760807
65332.15511266977,-49.24399039030546,-17.30296837788187
65460.73122309541,-46.89174460679607,-19.52106028829036
65589.56037608706,-48.86078951277062,-9.714118457456664
65718.64306964187,-48.52913637755552,-10.08997990528331
65847.97980273713,-48.98741545617955,-4.96752213665048
65977.57107533206,-48.61861148551362,-9.023083020362265
66107.41738836991,-48.57880689210362,-20.52561089192844
66237.51924377974,-48.95097809893159,-28.0264558095453
66367.87714447842,-47.52991338185176,-20.13936627044478
66498.49159437261,-48.42556580571352,-9.767193573931053
66629.36309836067,-50.15761822643534,-28.03079787673937
66760.4921623346,-49.70914266516841,-11.9266030704005
66891.87929318205,-48.61143237670105,-15.89720423344833
67023.5249987882,-46.8618990614258,-18.6237627385851
67155.42978803781,-48.55407848565563,-17.09988181971839
67287.59417081712,-49.47043455840485,-26.97141759899563
67420.01865801583,-46.39139740724984,-18.88976421069948
67552.70376152912,-48.1698520253847,-12.99420063969019
67685.6499942596,-47.05804011686823,-9.699398403519456
67818.85787011926,-47.5183483359617,-22.96379428661802
67952.32790403151,-48.70081176237923,-11.85095566585365
68086.06061193316,-47.77370918293645,-9.197146461130632
68220.05651077637,-47.21768937456254,-23.92634564117793
68354.31611853071,-49.95531146780689,-18.59853972049979
68488.83995418511,-50.88066386150268,-10.76789656448121
68623.62853774992,-48.69772974378671,-9.062668055992702
68758.68239025885,-49.28517686355509,-15.27507342964941
68894.00203377106,-49.26274865825349,-17.2332890407405
69029.58799137313,-50.36234304754885,-27.21183405263211
69165.44078718108,-49.15742327000548,-4.038095351504808
69301.56094634242,-48.13733676980755,-7.111160730200936
69437.94899503818,-49.061279388366,-6.37368521487241
69574.60546048492,-48.28442512465782,-22.99169124638569
69711.53087093678,-47.0092979995257,-28.0100069130625
69848.72575568753,-48.33908102761697,-4.510718930931901
69986.19064507262,-47.59836536990538,-16.44065929615152
70123.92607047122,-51.01105731393994,-9.358831769143315
70261.93256430824,-49.44610098289349,4.638487274858917
70400.21066005644,-48.09381867262572,-5.148894132060121
70538.76089223851,-47.24173536449604,-5.042256062139643
70677.58379642907,-47.46982310171512,-12.6298167987682
70816.67990925674,-48.63164107827181,-9.591447901010781
70956.04976840629,-47.35565267852046,-7.328430268547066
71095.69391262066,-46.69917875509328,-2.840840845348993
71235.61288170304,-48.54815074472359,-17.63869303508125
71375.80721651904,-48.48709137028937,-8.87233487866699
71516.27745899861,-49.5649041765996,-14.47954639063109
71657.02415213831,-47.56582931321682,-1.474878126302613
71798.04784000333,-47.82055983740173,-16.48752731161717
71939.34906772956,-49.71863888484648,-13.21214049121011
72080.92838152579,-47.64181535160193,-19.68904444906141
72222.78632867573,-50.29663352957175,-15.07183240469192
72364.92345754019,-49.33400988733459,5.679404181484045
72507.34031755918,-49.30347936205064,-7.088613669976596
72650.03745925397,-48.95226622596677,-10.57029718231882
72793.01543422937,-47.14579345354363,-5.997287429658421
72936.27479517568,-46.87122213494217,-14.12017954318571
73079.81609587096,-48.67850878863517,-11.18508811898371
73223.63989118315,-47.32967230269325,-25.55752140561823
73367.7467370721,-48.68124204286283,-6.142428696261135
73512.13719059192,-48.99478669061548,-18.98170563200924
73656.81180989296,-50.12355389153097,-21.65514293651401
73801.77115422404,-47.40980744387267,-10.926474888507
73947.01578393461,-49.78170278066191,-14.78950959073694
74092.54626047688,-49.66520488715591,-18.98441425556692
74238.36314640808,-48.66725894168767,-2.563333792471454
74384.46700539252,-49.50099556444286,-13.62266603772899
74530.85840220384,-48.20037264486326,-26.30026734972216
74677.53790272717,-48.34458759462574,-12.59425503994839
74824.50607396133,-48.43553030084779,-4.690783058651576
74971.76348402099,-48.64928057036474,-0.5091022584945506
75119.31070213897,-47.1883016394402,-9.256401201186009
75267.14829866825,-47.86616710643396,-11.65922533077094
75415.27684508437,-51.35170429134079,0.2128819154791373
75563.69691398751,-48.03947884011432,-6.202575901318795
75712.40907910478,-47.96871501805487,-21.5999494311259
75861.41391529237,-51.17465553223988,-10.53618847690709
76010.71199853784,-48.43238158472776,-11.30829342845083
76160.30390596231,-46.33872454174288,-13.09580865323932
76310.19021582266,-49.2245041499909,-14.53584865077623
76460.37150751386,-48.96819984043279,-17.02073291166241
76610.84836157112,-51.13982292848605,-13.13884582673735
76761.62135967215,-47.58543412902783,-3.610523582306056
76912.69108463945,-48.15932844776726,2.739713024735948
77064.05812044251,-47.84207633729493,1.282331925246496
77215.72305220013,-50.39396131662902,-3.139963858741009
77367.68646618263,-49.86580308274636,-3.840618398778119
77519.94894981409,-49.80345957725539,-2.881753504187287
77672.51109167474,-48.34845443351655,-20.61079819302714
77825.37348150309,-48.33207943174471,-16.17067990686778
77978.53671019833,-48.36134469138736,1.166201650667375
78132.00136982249,-50.00040267557938,-1.7855570943712
78285.76805360289,-46.83823824892588,-14.50460356420783
78439.83735593429,-48.7878060227355,-15.73686013262437
78594.20987238125,-47.19363102272021,-16.76709963988999
78748.8861996804,-47.09496709928438,-11.75086412112584
78903.86693574282,-48.73220267113805,-15.22610062771578
79059.15267965625,-49.00798457703225,-10.5579058488097
79214.74403168753,-48.04183655774392,-6.813818071781128
79370.64159328473,-47.80285652450203,-4.782683114440857
79526.84596707973,-50.66293775433628,-10.55604144393729
79683.3577568903,-48.16433279881981,3.735876066756447
79840.17756772258,-48.66488347218257,-15.27641024662472
79997.30600577344,-48.0093974867593,-6.412952521392228
